 ****** HSPICE -- H-2013.03 64-BIT (Mar  7 2013) win64 ******                   
  Copyright (C) 2013 Synopsys, Inc. All Rights Reserved.                        
  Unpublished-rights reserved under US copyright laws.
  This program is protected by law and is subject to the
  terms and conditions of the license agreement from Synopsys.
  Use of this program is your acceptance to be bound by the
  license agreement. HSPICE is the trademark of Synopsys, Inc.
  Input File: sramuingresistor.sp                                               
  Command line options: -i sramuingresistor.sp -o sramuingresistor.lis
  lic:  
  lic: FLEXlm: v10.9.8 
  lic: USER:   Dell                 HOSTNAME: DESKTOP-O3DHVG1 
  lic: HOSTID: "a0d37a293ca8 28f10e041fd4 a0d37a293ca4 a0d37a293ca5" PID:      1
 1108 
  lic: Using FLEXlm license file: 
  lic: C:\synopsys\Hspice_H-2013.03\lic.dat\lic.lic 
  lic: Checkout 1 hspice 
  lic: License/Maintenance for hspice will expire on 31-dec-2019/2019.12 
  lic: NODE LOCKED license on hostid "a0d37a293ca8 28f10e041fd4 a0d37a293ca4 a0d
 37a293ca5" 
  lic:   
 Init: read install configuration file: C:\synopsys\Hspice_H-2013.03\meta.cfg
 scientific notation:
 a=10**-18  f=10**-15  p=10**-12  n=10**-9  u=10**-6
 m=10**-3   k=10**3    x=10**6    g=10**9 
1****** HSPICE -- H-2013.03 64-BIT (Mar  7 2013) win64 ******                   
 ******  
 'inverter'

  ******  circuit name directory
 circuit number to circuit name directory
   number circuitname                     definition         multiplier
        0 main circuit


 circuit parameter definitions
  parameter          =  value 

     0:temp                                                    = 2.700e+01      
     0:m_cnt                                                   = 1.000e+00      
     0:wg                                                      = 4.000e-09      
     0:cb                                                      = 4.000e-11      
     0:lg                                                      = 1.000e-08      
     0:lgef                                                    = 1.000e-07      
     0:vfn                                                     = 0.000e+00      
     0:vfp                                                     = 0.000e+00      
     0:m                                                       = 0.000e+00      
     0:n                                                       = 1.900e+01      
     0:hox                                                     = 4.000e-09      
     1:tox                                                     = 4.000e-09      
     1:csub                                                    = 4.000e-11      
     1:vfbn                                                    = 0.000e+00      
     1:pitch                                                   = 2.000e-08      
     1:n1                                                      = 0.000e+00      
     1:n2                                                      = 1.900e+01      
     1:kgate                                                   = 1.600e+01      
     1:dout                                                    = 0.000e+00      
     1:sout                                                    = 0.000e+00      
     1:tubes                                                   = 1.000e+00      
     1:lch                                                     = 1.000e-08      
     1:lgeff                                                   = 1.000e-07      
     1:lss                                                     = 3.200e-08      
     1:ldd                                                     = 3.200e-08      
     2:tox                                                     = 4.000e-09      
     2:csub                                                    = 4.000e-11      
     2:vfbn                                                    = 0.000e+00      
     2:pitch                                                   = 2.000e-08      
     2:n1                                                      = 0.000e+00      
     2:n2                                                      = 1.000e+01      
     2:kgate                                                   = 1.600e+01      
     2:dout                                                    = 0.000e+00      
     2:sout                                                    = 0.000e+00      
     2:tubes                                                   = 1.000e+00      
     2:lch                                                     = 1.000e-08      
     2:lgeff                                                   = 1.000e-07      
     2:lss                                                     = 3.200e-08      
     2:ldd                                                     = 3.200e-08      
     5:tox                                                     = 4.000e-09      
     5:csub                                                    = 4.000e-11      
     5:pitch                                                   = 2.000e-08      
     5:n1                                                      = 0.000e+00      
     5:n2                                                      = 1.900e+01      
     5:vfbp                                                    = 0.000e+00      
     5:kgate                                                   = 1.600e+01      
     5:dout                                                    = 0.000e+00      
     5:sout                                                    = 0.000e+00      
     5:tubes                                                   = 1.000e+00      
     5:lch                                                     = 1.000e-08      
     5:lgeff                                                   = 1.000e-07      
     5:lss                                                     = 3.200e-08      
     5:ldd                                                     = 3.200e-08      
     7:tox                                                     = 4.000e-09      
     7:csub                                                    = 4.000e-11      
     7:pitch                                                   = 2.000e-08      
     7:n1                                                      = 0.000e+00      
     7:n2                                                      = 1.000e+01      
     7:vfbp                                                    = 0.000e+00      
     7:kgate                                                   = 1.600e+01      
     7:dout                                                    = 0.000e+00      
     7:sout                                                    = 0.000e+00      
     7:tubes                                                   = 1.000e+00      
     7:lch                                                     = 1.000e-08      
     7:lgeff                                                   = 1.000e-07      
     7:lss                                                     = 3.200e-08      
     7:ldd                                                     = 3.200e-08      




 constants  - tnom         kt           vt           gapsi        ni
            2.9815e+02   4.1163e-21   2.5692e-02   1.1156e+00   1.2565e+16 
  **info** (sramuingresistor.sp:114) DC voltage reset to initial transient source value              in source        0:vrwl                new dc=  0.0000D+00

 **warning**  associated with encrypted block(s) were suppressed due to encrypted content

1****** HSPICE -- H-2013.03 64-BIT (Mar  7 2013) win64 ******                   
 ******  
 'inverter'

  ******  circuit element summary tnom=  25.000 temp=  25.000 *****


 **** resistors

  
  
                                                              
 element name        0:r1       0:r2       0:r3       0:r4    
 node1               0:vdd      0:qb       0:vdd      0:q     
 node2               0:qb       0:n1       0:q        0:n2    
 model                                                        
 res eff           1.000e+08  1.000e+08  1.000e+08  1.000e+08 
 tc1                 0.         0.         0.         0.      
 tc2                 0.         0.         0.         0.      
 scale             1.000e+00  1.000e+00  1.000e+00  1.000e+00 
 m                 1.000e+00  1.000e+00  1.000e+00  1.000e+00 
 ac                1.000e+08  1.000e+08  1.000e+08  1.000e+08 
 temp              2.500e+01  2.500e+01  2.500e+01  2.500e+01 
 l                   0.         0.         0.         0.      
 w                   0.         0.         0.         0.      
 cap                 0.         0.         0.         0.      
 noise            1.000e+00  1.000e+00  1.000e+00  1.000e+00  


 **** independent sources

     name         node1        node2      dc volt    ac mag    ac phase    type
  vdd  vdd               0                  9.000e-01  0.000e+00  0.000e+00 dc   
  vrwl  rwl               0                  0.000e+00  0.000e+00  0.000e+00 pwl  
                time        value

                 0.000e+00    0.000e+00
                 1.250e-08    0.000e+00
                 1.260e-08    9.000e-01
                 1.500e-08    9.000e-01
                 1.510e-08    0.000e+00
                 2.250e-08    0.000e+00
                 2.260e-08    9.000e-01
                 2.500e-08    9.000e-01
                 2.510e-08    0.000e+00
                 3.250e-08    0.000e+00
                 3.260e-08    9.000e-01
                 3.500e-08    9.000e-01


  vrwlb  rwlb              0                  9.000e-01  0.000e+00  0.000e+00 pwl  
                time        value

                 0.000e+00    9.000e-01
                 1.250e-08    9.000e-01
                 1.260e-08    0.000e+00
                 1.500e-08    0.000e+00
                 1.510e-08    9.000e-01
                 2.250e-08    9.000e-01
                 2.260e-08    0.000e+00
                 2.500e-08    0.000e+00
                 2.510e-08    9.000e-01
                 3.250e-08    9.000e-01
                 3.260e-08    0.000e+00
                 3.500e-08    0.000e+00


  vwbl  wbl               0                  0.000e+00  0.000e+00  0.000e+00 pwl  
                time        value

                 0.000e+00    0.000e+00
                 5.000e-09    0.000e+00
                 5.100e-09    4.500e-01
                 1.000e-08    4.500e-01
                 1.010e-08    0.000e+00
                 1.500e-08    0.000e+00
                 1.510e-08    9.000e-01
                 2.000e-08    9.000e-01
                 2.010e-08    0.000e+00
                 3.000e-08    0.000e+00
                 4.000e-08    0.000e+00


  vwwl  wwl               0                  0.000e+00  0.000e+00  0.000e+00 pwl  
                time        value

                 0.000e+00    0.000e+00
                 7.500e-09    0.000e+00
                 7.600e-09    9.000e-01
                 1.000e-08    9.000e-01
                 1.010e-08    0.000e+00
                 1.750e-08    0.000e+00
                 1.760e-08    9.000e-01
                 2.000e-08    9.000e-01
                 2.010e-08    0.000e+00
                 2.750e-08    0.000e+00
                 2.760e-08    9.000e-01
                 3.000e-08    9.000e-01
                 3.010e-08    0.000e+00
                 4.000e-08    0.000e+00


  vwwlb  wwlb              0                  9.000e-01  0.000e+00  0.000e+00 pwl  
                time        value

                 0.000e+00    9.000e-01
                 7.500e-09    9.000e-01
                 7.600e-09    0.000e+00
                 1.000e-08    0.000e+00
                 1.010e-08    9.000e-01
                 1.750e-08    9.000e-01
                 1.760e-08    0.000e+00
                 2.000e-08    0.000e+00
                 2.010e-08    9.000e-01
                 2.750e-08    9.000e-01
                 2.760e-08    0.000e+00
                 3.000e-08    0.000e+00
                 3.010e-08    9.000e-01
                 4.000e-08    9.000e-01




 **** subcircuit calls
    name        subcircuit         external nodes


         0:xcnt111  ncnfet          0:n1          0:q           0:0       
                               0:0       


         0:xcnt222  ncnfet          0:qb          0:q           0:0       
                               0:0       


         0:xcnt333  ncnfet          0:n2          0:qb          0:0       
                               0:0       


         0:xcnt444  ncnfet          0:q           0:qb          0:0       
                               0:0       


         0:xcnt2    pcnfet          0:q           0:wwlb        0:wbl     
                               0:wbl     


         0:xcnt1    ncnfet          0:wbl         0:wwl         0:q       
                               0:q       


         0:xcnt16   pcnfet          0:vdd         0:qb          0:n5      
                               0:n5      


         0:xcnt15   ncnfet          0:n5          0:qb          0:0       
                               0:0       


         0:xcnt18   pcnfet          0:rbl         0:rwlb        0:n5      
                               0:n5      


         0:xcnt17   ncnfet          0:n5          0:rwl         0:rbl     
                               0:rbl     


  
1****** HSPICE -- H-2013.03 64-BIT (Mar  7 2013) win64 ******                   
 ******  
 'inverter'

  ******  element node table
                                                                                      
 0                vdd              vrwl             vrwlb            vwbl             
                  vwwl             vwwlb                                              
 n1               r2                                                                  
 n2               r4                                                                  
 q                r3               r4                                                 
 qb               r1               r2                                                 
 rwl              vrwl                                                                
 rwlb             vrwlb                                                               
 vdd              r1               r3               vdd                               
 wbl              vwbl                                                                
 wwl              vwwl                                                                
 wwlb             vwwlb                                                               
  **warning** PIVOT option setting is simplified, pivot = 13 is obsolete,
              automatically switch to pivot = 1.
 *****************************************************************
 ******  option summary
 ******
 runlvl  = 3         bypass  = 2         
  Opening plot unit= 79
 file=sramuingresistor.pa0

1****** HSPICE -- H-2013.03 64-BIT (Mar  7 2013) win64 ******                   
 ******  
 'inverter'

  ******  operating point information tnom=  25.000 temp=  25.000 *****
 ***** operating point status is voltage   simulation time is   0.000e+00
     node    =voltage       node    =voltage       node    =voltage

 + 0:n1      = 2.592e-02  0:n2      = 2.375e-02  0:n5      = 7.960e-01
 + 0:q       = 4.445e-01  0:qb      = 4.523e-01  0:rbl     = 1.679e-03
 + 0:rwl     = 0.000e+00  0:rwlb    = 9.000e-01  0:vdd     = 9.000e-01
 + 0:wbl     = 0.000e+00  0:wwl     = 0.000e+00  0:wwlb    = 9.000e-01

 ******  
 'inverter'

  ******  transient analysis tnom=  25.000 temp=  25.000 *****
x

        time    voltage      voltage      voltage      voltage    
                     q           qb           wbl         wwlb    
  0.0000e+00    4.445e-01    4.523e-01    0.000e+00    9.000e-01  
  1.0000e-10    4.445e-01    4.523e-01    0.000e+00    9.000e-01  
  2.0000e-10    4.445e-01    4.523e-01    0.000e+00    9.000e-01  
  3.0000e-10    4.445e-01    4.523e-01    0.000e+00    9.000e-01  
  4.0000e-10    4.445e-01    4.523e-01    0.000e+00    9.000e-01  
  5.0000e-10    4.445e-01    4.523e-01    0.000e+00    9.000e-01  
  6.0000e-10    4.445e-01    4.523e-01    0.000e+00    9.000e-01  
  7.0000e-10    4.445e-01    4.523e-01    0.000e+00    9.000e-01  
  8.0000e-10    4.445e-01    4.523e-01    0.000e+00    9.000e-01  
  9.0000e-10    4.445e-01    4.523e-01    0.000e+00    9.000e-01  
  1.0000e-09    4.445e-01    4.523e-01    0.000e+00    9.000e-01  
  1.1000e-09    4.445e-01    4.523e-01    0.000e+00    9.000e-01  
  1.2000e-09    4.445e-01    4.523e-01    0.000e+00    9.000e-01  
  1.3000e-09    4.445e-01    4.523e-01    0.000e+00    9.000e-01  
  1.4000e-09    4.445e-01    4.523e-01    0.000e+00    9.000e-01  
  1.5000e-09    4.445e-01    4.523e-01    0.000e+00    9.000e-01  
  1.6000e-09    4.445e-01    4.523e-01    0.000e+00    9.000e-01  
  1.7000e-09    4.445e-01    4.523e-01    0.000e+00    9.000e-01  
  1.8000e-09    4.445e-01    4.523e-01    0.000e+00    9.000e-01  
  1.9000e-09    4.445e-01    4.523e-01    0.000e+00    9.000e-01  
  2.0000e-09    4.445e-01    4.523e-01    0.000e+00    9.000e-01  
  2.1000e-09    4.445e-01    4.523e-01    0.000e+00    9.000e-01  
  2.2000e-09    4.445e-01    4.523e-01    0.000e+00    9.000e-01  
  2.3000e-09    4.445e-01    4.523e-01    0.000e+00    9.000e-01  
  2.4000e-09    4.445e-01    4.523e-01    0.000e+00    9.000e-01  
  2.5000e-09    4.445e-01    4.523e-01    0.000e+00    9.000e-01  
  2.6000e-09    4.445e-01    4.523e-01    0.000e+00    9.000e-01  
  2.7000e-09    4.445e-01    4.523e-01    0.000e+00    9.000e-01  
  2.8000e-09    4.445e-01    4.523e-01    0.000e+00    9.000e-01  
  2.9000e-09    4.445e-01    4.523e-01    0.000e+00    9.000e-01  
  3.0000e-09    4.445e-01    4.523e-01    0.000e+00    9.000e-01  
  3.1000e-09    4.445e-01    4.523e-01    0.000e+00    9.000e-01  
  3.2000e-09    4.445e-01    4.523e-01    0.000e+00    9.000e-01  
  3.3000e-09    4.445e-01    4.523e-01    0.000e+00    9.000e-01  
  3.4000e-09    4.445e-01    4.523e-01    0.000e+00    9.000e-01  
  3.5000e-09    4.445e-01    4.523e-01    0.000e+00    9.000e-01  
  3.6000e-09    4.445e-01    4.523e-01    0.000e+00    9.000e-01  
  3.7000e-09    4.445e-01    4.523e-01    0.000e+00    9.000e-01  
  3.8000e-09    4.445e-01    4.523e-01    0.000e+00    9.000e-01  
  3.9000e-09    4.445e-01    4.523e-01    0.000e+00    9.000e-01  
  4.0000e-09    4.445e-01    4.523e-01    0.000e+00    9.000e-01  
  4.1000e-09    4.445e-01    4.523e-01    0.000e+00    9.000e-01  
  4.2000e-09    4.445e-01    4.523e-01    0.000e+00    9.000e-01  
  4.3000e-09    4.445e-01    4.523e-01    0.000e+00    9.000e-01  
  4.4000e-09    4.445e-01    4.523e-01    0.000e+00    9.000e-01  
  4.5000e-09    4.445e-01    4.523e-01    0.000e+00    9.000e-01  
  4.6000e-09    4.445e-01    4.523e-01    0.000e+00    9.000e-01  
  4.7000e-09    4.445e-01    4.523e-01    0.000e+00    9.000e-01  
  4.8000e-09    4.445e-01    4.523e-01    0.000e+00    9.000e-01  
  4.9000e-09    4.445e-01    4.523e-01    0.000e+00    9.000e-01  
  5.0000e-09    4.445e-01    4.523e-01    0.000e+00    9.000e-01  
  5.1000e-09    5.448e-01    4.423e-01    4.500e-01    9.000e-01  
  5.2000e-09    5.331e-01    4.184e-01    4.500e-01    9.000e-01  
  5.3000e-09    5.246e-01    4.042e-01    4.500e-01    9.000e-01  
  5.4000e-09    5.180e-01    3.982e-01    4.500e-01    9.000e-01  
  5.5000e-09    5.122e-01    3.941e-01    4.500e-01    9.000e-01  
  5.6000e-09    5.077e-01    3.940e-01    4.500e-01    9.000e-01  
  5.7000e-09    5.033e-01    3.938e-01    4.500e-01    9.000e-01  
  5.8000e-09    4.990e-01    3.939e-01    4.500e-01    9.000e-01  
