 ****** HSPICE -- H-2013.03 64-BIT (Mar  7 2013) win64 ******                   
  Copyright (C) 2013 Synopsys, Inc. All Rights Reserved.                        
  Unpublished-rights reserved under US copyright laws.
  This program is protected by law and is subject to the
  terms and conditions of the license agreement from Synopsys.
  Use of this program is your acceptance to be bound by the
  license agreement. HSPICE is the trademark of Synopsys, Inc.
  Input File: st1resistor.sp                                                    
  Command line options: -i st1resistor.sp -o st1resistor.lis
  lic:  
  lic: FLEXlm: v10.9.8 
  lic: USER:   Dell                 HOSTNAME: DESKTOP-O3DHVG1 
  lic: HOSTID: "a0d37a293ca8 28f10e041fd4 a0d37a293ca4 a0d37a293ca5" PID:      3
 88 
  lic: Using FLEXlm license file: 
  lic: C:\synopsys\Hspice_H-2013.03\lic.dat\lic.lic 
  lic: Checkout 1 hspice 
  lic: License/Maintenance for hspice will expire on 31-dec-2019/2019.12 
  lic: NODE LOCKED license on hostid "a0d37a293ca8 28f10e041fd4 a0d37a293ca4 a0d
 37a293ca5" 
  lic:   
 Init: read install configuration file: C:\synopsys\Hspice_H-2013.03\meta.cfg
 scientific notation:
 a=10**-18  f=10**-15  p=10**-12  n=10**-9  u=10**-6
 m=10**-3   k=10**3    x=10**6    g=10**9 
1****** HSPICE -- H-2013.03 64-BIT (Mar  7 2013) win64 ******                   
 ******  
 'inverter'

  ******  circuit name directory
 circuit number to circuit name directory
   number circuitname                     definition         multiplier
        0 main circuit


 circuit parameter definitions
  parameter          =  value 

     0:temp                                                    = 2.700e+01      
     0:m_cnt                                                   = 1.000e+00      
     0:wg                                                      = 4.000e-09      
     0:cb                                                      = 4.000e-11      
     0:lg                                                      = 1.000e-08      
     0:lgef                                                    = 1.000e-07      
     0:vfn                                                     = 0.000e+00      
     0:vfp                                                     = 0.000e+00      
     0:m                                                       = 1.100e+01      
     0:n                                                       = 3.000e+00      
     0:hox                                                     = 4.000e-09      
     1:tox                                                     = 4.000e-09      
     1:csub                                                    = 4.000e-11      
     1:vfbn                                                    = 0.000e+00      
     1:pitch                                                   = 2.000e-08      
     1:n1                                                      = 0.000e+00      
     1:n2                                                      = 1.900e+01      
     1:kgate                                                   = 1.600e+01      
     1:dout                                                    = 0.000e+00      
     1:sout                                                    = 0.000e+00      
     1:tubes                                                   = 1.000e+00      
     1:lch                                                     = 1.000e-08      
     1:lgeff                                                   = 1.000e-07      
     1:lss                                                     = 3.200e-08      
     1:ldd                                                     = 3.200e-08      
     2:tox                                                     = 4.000e-09      
     2:csub                                                    = 4.000e-11      
     2:vfbn                                                    = 0.000e+00      
     2:pitch                                                   = 2.000e-08      
     2:n1                                                      = 0.000e+00      
     2:n2                                                      = 1.000e+01      
     2:kgate                                                   = 1.600e+01      
     2:dout                                                    = 0.000e+00      
     2:sout                                                    = 0.000e+00      
     2:tubes                                                   = 1.000e+00      
     2:lch                                                     = 1.000e-08      
     2:lgeff                                                   = 1.000e-07      
     2:lss                                                     = 3.200e-08      
     2:ldd                                                     = 3.200e-08      




 constants  - tnom         kt           vt           gapsi        ni
            2.9815e+02   4.1163e-21   2.5692e-02   1.1156e+00   1.2565e+16 

 **warning**  associated with encrypted block(s) were suppressed due to encrypted content

1****** HSPICE -- H-2013.03 64-BIT (Mar  7 2013) win64 ******                   
 ******  
 'inverter'

  ******  circuit element summary tnom=  25.000 temp=  25.000 *****


 **** resistors

  
  
                                        
 element name        0:r1       0:r2    
 node1               0:vdd      0:out   
 node2               0:out      0:n1    
 model                                  
 res eff           1.000e+08  1.000e+08 
 tc1                 0.         0.      
 tc2                 0.         0.      
 scale             1.000e+00  1.000e+00 
 m                 1.000e+00  1.000e+00 
 ac                1.000e+08  1.000e+08 
 temp              2.500e+01  2.500e+01 
 l                   0.         0.      
 w                   0.         0.      
 cap                 0.         0.      
 noise            1.000e+00  1.000e+00  


 **** independent sources

     name         node1        node2      dc volt    ac mag    ac phase    type
  vdd  vdd               0                  9.000e-01  0.000e+00  0.000e+00 dc   
  vin  in                0                  1.000e+00  0.000e+00  0.000e+00 dc   


 **** subcircuit calls
    name        subcircuit         external nodes


         0:xcnt1    ncnfet          0:n1          0:in          0:0       
                               0:0       


         0:xcnt2    ncnfet          0:out         0:in          0:0       
                               0:0       


  
1****** HSPICE -- H-2013.03 64-BIT (Mar  7 2013) win64 ******                   
 ******  
 'inverter'

  ******  element node table
                            
 0                vdd vin   
 in               vin       
 n1               r2        
 out              r1  r2    
 vdd              r1  vdd   
  **warning** PIVOT option setting is simplified, pivot = 13 is obsolete,
              automatically switch to pivot = 1.
 *****************************************************************
 ******  option summary
 ******
 runlvl  = 3         bypass  = 2         
  Opening plot unit= 79
 file=st1resistor.pa0

 ******  
 'inverter'

  ******  dc transfer curves tnom=  25.000 temp=  25.000 *****
x

        volt    voltage      voltage    
                    in           out    
  0.0000e+00    0.000e+00    8.984e-01  
  1.0000e-02    1.000e-02    8.984e-01  
  2.0000e-02    2.000e-02    8.984e-01  
  3.0000e-02    3.000e-02    8.984e-01  
  4.0000e-02    4.000e-02    8.984e-01  
  5.0000e-02    5.000e-02    8.984e-01  
  6.0000e-02    6.000e-02    8.983e-01  
  7.0000e-02    7.000e-02    8.983e-01  
  8.0000e-02    8.000e-02    8.982e-01  
  9.0000e-02    9.000e-02    8.981e-01  
  1.0000e-01    1.000e-01    8.980e-01  
  1.1000e-01    1.100e-01    8.978e-01  
  1.2000e-01    1.200e-01    8.975e-01  
  1.3000e-01    1.300e-01    8.971e-01  
  1.4000e-01    1.400e-01    8.966e-01  
  1.5000e-01    1.500e-01    8.958e-01  
  1.6000e-01    1.600e-01    8.948e-01  
  1.7000e-01    1.700e-01    8.934e-01  
  1.8000e-01    1.800e-01    8.915e-01  
  1.9000e-01    1.900e-01    8.888e-01  
  2.0000e-01    2.000e-01    8.853e-01  
  2.1000e-01    2.100e-01    8.805e-01  
  2.2000e-01    2.200e-01    8.743e-01  
  2.3000e-01    2.300e-01    8.662e-01  
  2.4000e-01    2.400e-01    8.560e-01  
  2.5000e-01    2.500e-01    8.433e-01  
  2.6000e-01    2.600e-01    8.277e-01  
  2.7000e-01    2.700e-01    8.091e-01  
  2.8000e-01    2.800e-01    7.873e-01  
  2.9000e-01    2.900e-01    7.619e-01  
  3.0000e-01    3.000e-01    7.330e-01  
  3.1000e-01    3.100e-01    7.003e-01  
  3.2000e-01    3.200e-01    6.637e-01  
  3.3000e-01    3.300e-01    6.228e-01  
  3.4000e-01    3.400e-01    5.776e-01  
  3.5000e-01    3.500e-01    5.300e-01  
  3.6000e-01    3.600e-01    4.985e-01  
  3.7000e-01    3.700e-01    4.852e-01  
  3.8000e-01    3.800e-01    4.778e-01  
  3.9000e-01    3.900e-01    4.727e-01  
  4.0000e-01    4.000e-01    4.687e-01  
  4.1000e-01    4.100e-01    4.652e-01  
  4.2000e-01    4.200e-01    4.618e-01  
  4.3000e-01    4.300e-01    4.583e-01  
  4.4000e-01    4.400e-01    4.543e-01  
  4.5000e-01    4.500e-01    4.495e-01  
  4.6000e-01    4.600e-01    4.437e-01  
  4.7000e-01    4.700e-01    4.361e-01  
  4.8000e-01    4.800e-01    4.263e-01  
  4.9000e-01    4.900e-01    4.134e-01  
  5.0000e-01    5.000e-01    3.963e-01  
  5.1000e-01    5.100e-01    3.738e-01  
  5.2000e-01    5.200e-01    3.444e-01  
  5.3000e-01    5.300e-01    3.064e-01  
  5.4000e-01    5.400e-01    2.579e-01  
  5.5000e-01    5.500e-01    1.973e-01  
  5.6000e-01    5.600e-01    1.268e-01  
  5.7000e-01    5.700e-01    7.294e-02  
  5.8000e-01    5.800e-01    4.816e-02  
  5.9000e-01    5.900e-01    3.552e-02  
  6.0000e-01    6.000e-01    2.787e-02  
  6.1000e-01    6.100e-01    2.272e-02  
  6.2000e-01    6.200e-01    1.903e-02  
  6.3000e-01    6.300e-01    1.626e-02  
  6.4000e-01    6.400e-01    1.411e-02  
  6.5000e-01    6.500e-01    1.241e-02  
  6.6000e-01    6.600e-01    1.102e-02  
  6.7000e-01    6.700e-01    9.867e-03  
  6.8000e-01    6.800e-01    8.905e-03  
  6.9000e-01    6.900e-01    8.088e-03  
  7.0000e-01    7.000e-01    7.387e-03  
  7.1000e-01    7.100e-01    6.780e-03  
  7.2000e-01    7.200e-01    6.250e-03  
  7.3000e-01    7.300e-01    5.783e-03  
  7.4000e-01    7.400e-01    5.370e-03  
  7.5000e-01    7.500e-01    5.002e-03  
  7.6000e-01    7.600e-01    4.672e-03  
  7.7000e-01    7.700e-01    4.375e-03  
  7.8000e-01    7.800e-01    4.107e-03  
  7.9000e-01    7.900e-01    3.863e-03  
  8.0000e-01    8.000e-01    3.641e-03  
  8.1000e-01    8.100e-01    3.437e-03  
  8.2000e-01    8.200e-01    3.250e-03  
  8.3000e-01    8.300e-01    3.078e-03  
  8.4000e-01    8.400e-01    2.919e-03  
  8.5000e-01    8.500e-01    2.772e-03  
  8.6000e-01    8.600e-01    2.635e-03  
  8.7000e-01    8.700e-01    2.508e-03  
  8.8000e-01    8.800e-01    2.389e-03  
  8.9000e-01    8.900e-01    2.279e-03  
  9.0000e-01    9.000e-01    2.175e-03  
y
-----------------------------------------------

          ***** job concluded
1****** HSPICE -- H-2013.03 64-BIT (Mar  7 2013) win64 ******                   
 ******  
 'inverter'

  ******  job statistics summary tnom=  25.000 temp=  25.000 *****

  ******  HSPICE Threads Information  ******

  Command Line Threads Count :     1
  Available CPU Count        :     4
  Actual Threads Count       :     1


  ******  Circuit Statistics  ******
  # nodes       =      53 # elements   =     126
  # resistors   =      26 # capacitors =      58 # inductors   =       0
  # mutual_inds =       0 # vccs       =      16 # vcvs        =      20
  # cccs        =       0 # ccvs       =       0 # volt_srcs   =       6
  # curr_srcs   =       0 # diodes     =       0 # bjts        =       0
  # jfets       =       0 # mosfets    =       0 # U elements  =       0
  # T elements  =       0 # W elements =       0 # B elements  =       0
  # S elements  =       0 # P elements =       0 # va device   =       0
  # vector_srcs =       0 # N elements =       0


  ******  Runtime Statistics (seconds)  ******

  analysis           time    # points   tot. iter  conv.iter
  op point           0.00           1           0
  dc sweep           0.48          91         220
  readin             0.03
  errchk             0.03
  setup              0.00
  output             0.00


           peak memory used         39.98 megabytes
           total cpu time            0.55 seconds
           total elapsed time        0.60 seconds
           job started at     14:35:48 11/28/2017
           job ended   at     14:35:48 11/28/2017


  lic: Release hspice token(s) 
 lic: total license checkout elapse time:        0.02(s)
