 ****** HSPICE -- H-2013.03 64-BIT (Mar  7 2013) win64 ******                   
  Copyright (C) 2013 Synopsys, Inc. All Rights Reserved.                        
  Unpublished-rights reserved under US copyright laws.
  This program is protected by law and is subject to the
  terms and conditions of the license agreement from Synopsys.
  Use of this program is your acceptance to be bound by the
  license agreement. HSPICE is the trademark of Synopsys, Inc.
  Input File: stiusing6ttube=2.sp                                               
  Command line options: -i stiusing6ttube=2.sp -o stiusing6ttube=2.lis
  lic:  
  lic: FLEXlm: v10.9.8 
  lic: USER:   Dell                 HOSTNAME: DESKTOP-O3DHVG1 
  lic: HOSTID: "a0d37a293ca8 28f10e041fd4 a0d37a293ca4 a0d37a293ca5" PID:      1
 2860 
  lic: Using FLEXlm license file: 
  lic: C:\synopsys\Hspice_H-2013.03\lic.dat\lic.lic 
  lic: Checkout 1 hspice 
  lic: License/Maintenance for hspice will expire on 31-dec-2019/2019.12 
  lic: NODE LOCKED license on hostid "a0d37a293ca8 28f10e041fd4 a0d37a293ca4 a0d
 37a293ca5" 
  lic:   
 Init: read install configuration file: C:\synopsys\Hspice_H-2013.03\meta.cfg
 scientific notation:
 a=10**-18  f=10**-15  p=10**-12  n=10**-9  u=10**-6
 m=10**-3   k=10**3    x=10**6    g=10**9 
1****** HSPICE -- H-2013.03 64-BIT (Mar  7 2013) win64 ******                   
 ******  
 'inverter'

  ******  circuit name directory
 circuit number to circuit name directory
   number circuitname                     definition         multiplier
        0 main circuit


 circuit parameter definitions
  parameter          =  value 

     0:temp                                                    = 2.700e+01      
     0:m_cnt                                                   = 1.000e+00      
     0:wg                                                      = 4.000e-09      
     0:cb                                                      = 4.000e-11      
     0:lg                                                      = 1.000e-08      
     0:lgef                                                    = 1.000e-07      
     0:vfn                                                     = 0.000e+00      
     0:vfp                                                     = 0.000e+00      
     0:m                                                       = 1.100e+01      
     0:n                                                       = 3.000e+00      
     0:hox                                                     = 4.000e-09      
     1:tox                                                     = 4.000e-09      
     1:csub                                                    = 4.000e-11      
     1:pitch                                                   = 2.000e-08      
     1:n1                                                      = 0.000e+00      
     1:n2                                                      = 1.900e+01      
     1:vfbp                                                    = 0.000e+00      
     1:kgate                                                   = 1.600e+01      
     1:dout                                                    = 0.000e+00      
     1:sout                                                    = 0.000e+00      
     1:tubes                                                   = 1.000e+02      
     1:lch                                                     = 1.000e-08      
     1:lgeff                                                   = 1.000e-07      
     1:lss                                                     = 3.200e-08      
     1:ldd                                                     = 3.200e-08      
     2:tox                                                     = 4.000e-09      
     2:csub                                                    = 4.000e-11      
     2:pitch                                                   = 2.000e-08      
     2:n1                                                      = 0.000e+00      
     2:n2                                                      = 1.000e+01      
     2:vfbp                                                    = 0.000e+00      
     2:kgate                                                   = 1.600e+01      
     2:dout                                                    = 0.000e+00      
     2:sout                                                    = 0.000e+00      
     2:tubes                                                   = 1.000e+02      
     2:lch                                                     = 1.000e-08      
     2:lgeff                                                   = 1.000e-07      
     2:lss                                                     = 3.200e-08      
     2:ldd                                                     = 3.200e-08      
     3:tox                                                     = 4.000e-09      
     3:csub                                                    = 4.000e-11      
     3:pitch                                                   = 2.000e-08      
     3:n1                                                      = 0.000e+00      
     3:n2                                                      = 1.300e+01      
     3:vfbp                                                    = 0.000e+00      
     3:kgate                                                   = 1.600e+01      
     3:dout                                                    = 0.000e+00      
     3:sout                                                    = 0.000e+00      
     3:tubes                                                   = 1.000e+02      
     3:lch                                                     = 1.000e-08      
     3:lgeff                                                   = 1.000e-07      
     3:lss                                                     = 3.200e-08      
     3:ldd                                                     = 3.200e-08      
     4:tox                                                     = 4.000e-09      
     4:csub                                                    = 4.000e-11      
     4:vfbn                                                    = 0.000e+00      
     4:pitch                                                   = 2.000e-08      
     4:n1                                                      = 0.000e+00      
     4:n2                                                      = 1.300e+01      
     4:kgate                                                   = 1.600e+01      
     4:dout                                                    = 0.000e+00      
     4:sout                                                    = 0.000e+00      
     4:tubes                                                   = 1.000e+02      
     4:lch                                                     = 1.000e-08      
     4:lgeff                                                   = 1.000e-07      
     4:lss                                                     = 3.200e-08      
     4:ldd                                                     = 3.200e-08      
     5:tox                                                     = 4.000e-09      
     5:csub                                                    = 4.000e-11      
     5:vfbn                                                    = 0.000e+00      
     5:pitch                                                   = 2.000e-08      
     5:n1                                                      = 0.000e+00      
     5:n2                                                      = 1.900e+01      
     5:kgate                                                   = 1.600e+01      
     5:dout                                                    = 0.000e+00      
     5:sout                                                    = 0.000e+00      
     5:tubes                                                   = 1.000e+02      
     5:lch                                                     = 1.000e-08      
     5:lgeff                                                   = 1.000e-07      
     5:lss                                                     = 3.200e-08      
     5:ldd                                                     = 3.200e-08      
     6:tox                                                     = 4.000e-09      
     6:csub                                                    = 4.000e-11      
     6:vfbn                                                    = 0.000e+00      
     6:pitch                                                   = 2.000e-08      
     6:n1                                                      = 0.000e+00      
     6:n2                                                      = 1.000e+01      
     6:kgate                                                   = 1.600e+01      
     6:dout                                                    = 0.000e+00      
     6:sout                                                    = 0.000e+00      
     6:tubes                                                   = 1.000e+02      
     6:lch                                                     = 1.000e-08      
     6:lgeff                                                   = 1.000e-07      
     6:lss                                                     = 3.200e-08      
     6:ldd                                                     = 3.200e-08      




 constants  - tnom         kt           vt           gapsi        ni
            2.9815e+02   4.1163e-21   2.5692e-02   1.1156e+00   1.2565e+16 

 **warning**  associated with encrypted block(s) were suppressed due to encrypted content

1****** HSPICE -- H-2013.03 64-BIT (Mar  7 2013) win64 ******                   
 ******  
 'inverter'

  ******  circuit element summary tnom=  25.000 temp=  25.000 *****


 **** independent sources

     name         node1        node2      dc volt    ac mag    ac phase    type
  vdd  vdd               0                  9.000e-01  0.000e+00  0.000e+00 dc   
  vin  in                0                  1.000e+00  0.000e+00  0.000e+00 dc   


 **** subcircuit calls
    name        subcircuit         external nodes


         0:xcnt5    pcnfet          0:vdd         0:in          0:n2      
                               0:n2      


         0:xcnt6    pcnfet          0:vdd         0:in          0:out     
                               0:out     


         0:xcnt4    pcnfet          0:out         0:out         0:n2      
                               0:n2      


         0:xcnt3    ncnfet          0:out         0:out         0:n1      
                               0:n1      


         0:xcnt1    ncnfet          0:n1          0:in          0:0       
                               0:0       


         0:xcnt2    ncnfet          0:out         0:in          0:0       
                               0:0       


  
1****** HSPICE -- H-2013.03 64-BIT (Mar  7 2013) win64 ******                   
 ******  
 'inverter'

  ******  element node table
                            
 0                vdd vin   
 in               vin       
 vdd              vdd       
  **warning** PIVOT option setting is simplified, pivot = 13 is obsolete,
              automatically switch to pivot = 1.
 *****************************************************************
 ******  option summary
 ******
 runlvl  = 3         bypass  = 2         
  Opening plot unit= 79
 file=stiusing6ttube=2.pa0

 ******  
 'inverter'

  ******  dc transfer curves tnom=  25.000 temp=  25.000 *****
x

        volt    voltage      voltage    
                    in           out    
  0.0000e+00    0.000e+00    9.000e-01  
  1.0000e-02    1.000e-02    9.000e-01  
  2.0000e-02    2.000e-02    9.000e-01  
  3.0000e-02    3.000e-02    9.000e-01  
  4.0000e-02    4.000e-02    9.000e-01  
  5.0000e-02    5.000e-02    9.000e-01  
  6.0000e-02    6.000e-02    9.000e-01  
  7.0000e-02    7.000e-02    9.000e-01  
  8.0000e-02    8.000e-02    9.000e-01  
  9.0000e-02    9.000e-02    9.000e-01  
  1.0000e-01    1.000e-01    9.000e-01  
  1.1000e-01    1.100e-01    9.000e-01  
  1.2000e-01    1.200e-01    9.000e-01  
  1.3000e-01    1.300e-01    9.000e-01  
  1.4000e-01    1.400e-01    9.000e-01  
  1.5000e-01    1.500e-01    9.000e-01  
  1.6000e-01    1.600e-01    9.000e-01  
  1.7000e-01    1.700e-01    9.000e-01  
  1.8000e-01    1.800e-01    9.000e-01  
  1.9000e-01    1.900e-01    8.999e-01  
  2.0000e-01    2.000e-01    8.999e-01  
  2.1000e-01    2.100e-01    8.998e-01  
  2.2000e-01    2.200e-01    8.998e-01  
  2.3000e-01    2.300e-01    8.997e-01  
  2.4000e-01    2.400e-01    8.995e-01  
  2.5000e-01    2.500e-01    8.993e-01  
  2.6000e-01    2.600e-01    8.990e-01  
  2.7000e-01    2.700e-01    8.985e-01  
  2.8000e-01    2.800e-01    8.979e-01  
  2.9000e-01    2.900e-01    8.970e-01  
  3.0000e-01    3.000e-01    8.957e-01  
  3.1000e-01    3.100e-01    8.938e-01  
  3.2000e-01    3.200e-01    8.910e-01  
  3.3000e-01    3.300e-01    8.867e-01  
  3.4000e-01    3.400e-01    8.794e-01  
  3.5000e-01    3.500e-01    8.654e-01  
  3.6000e-01    3.600e-01    8.273e-01  
  3.7000e-01    3.700e-01    6.838e-01  
  3.8000e-01    3.800e-01    5.541e-01  
  3.9000e-01    3.900e-01    5.148e-01  
  4.0000e-01    4.000e-01    4.953e-01  
  4.1000e-01    4.100e-01    4.826e-01  
  4.2000e-01    4.200e-01    4.733e-01  
  4.3000e-01    4.300e-01    4.660e-01  
  4.4000e-01    4.400e-01    4.599e-01  
  4.5000e-01    4.500e-01    4.547e-01  
  4.6000e-01    4.600e-01    4.499e-01  
  4.7000e-01    4.700e-01    4.453e-01  
  4.8000e-01    4.800e-01    4.404e-01  
  4.9000e-01    4.900e-01    4.349e-01  
  5.0000e-01    5.000e-01    4.284e-01  
  5.1000e-01    5.100e-01    4.201e-01  
  5.2000e-01    5.200e-01    4.084e-01  
  5.3000e-01    5.300e-01    3.902e-01  
  5.4000e-01    5.400e-01    3.490e-01  
  5.5000e-01    5.500e-01    2.112e-01  
  5.6000e-01    5.600e-01    1.766e-01  
  5.7000e-01    5.700e-01    1.628e-01  
  5.8000e-01    5.800e-01    1.511e-01  
  5.9000e-01    5.900e-01    1.420e-01  
  6.0000e-01    6.000e-01    1.343e-01  
  6.1000e-01    6.100e-01    1.277e-01  
  6.2000e-01    6.200e-01    1.246e-01  
  6.3000e-01    6.300e-01    1.194e-01  
  6.4000e-01    6.400e-01    1.146e-01  
  6.5000e-01    6.500e-01    1.103e-01  
  6.6000e-01    6.600e-01    1.062e-01  
  6.7000e-01    6.700e-01    1.024e-01  
  6.8000e-01    6.800e-01    9.887e-02  
  6.9000e-01    6.900e-01    9.552e-02  
  7.0000e-01    7.000e-01    9.237e-02  
  7.1000e-01    7.100e-01    8.938e-02  
  7.2000e-01    7.200e-01    8.654e-02  
  7.3000e-01    7.300e-01    8.384e-02  
  7.4000e-01    7.400e-01    8.128e-02  
  7.5000e-01    7.500e-01    7.884e-02  
  7.6000e-01    7.600e-01    7.651e-02  
  7.7000e-01    7.700e-01    7.429e-02  
  7.8000e-01    7.800e-01    7.218e-02  
  7.9000e-01    7.900e-01    7.016e-02  
  8.0000e-01    8.000e-01    6.825e-02  
  8.1000e-01    8.100e-01    6.642e-02  
  8.2000e-01    8.200e-01    6.467e-02  
  8.3000e-01    8.300e-01    6.301e-02  
  8.4000e-01    8.400e-01    6.142e-02  
  8.5000e-01    8.500e-01    5.991e-02  
  8.6000e-01    8.600e-01    5.846e-02  
  8.7000e-01    8.700e-01    5.708e-02  
  8.8000e-01    8.800e-01    5.575e-02  
  8.9000e-01    8.900e-01    5.604e-02  
  9.0000e-01    9.000e-01    5.478e-02  
  9.1000e-01    9.100e-01    5.525e-02  
  9.2000e-01    9.200e-01    5.406e-02  
  9.3000e-01    9.300e-01    5.292e-02  
  9.4000e-01    9.400e-01    5.182e-02  
  9.5000e-01    9.500e-01    5.076e-02  
  9.6000e-01    9.600e-01    4.973e-02  
  9.7000e-01    9.700e-01    4.874e-02  
  9.8000e-01    9.800e-01    4.777e-02  
  9.9000e-01    9.900e-01    4.683e-02  
  1.0000e+00    1.000e+00    4.592e-02  
y
-----------------------------------------------

          ***** job concluded
1****** HSPICE -- H-2013.03 64-BIT (Mar  7 2013) win64 ******                   
 ******  
 'inverter'

  ******  job statistics summary tnom=  25.000 temp=  25.000 *****

  ******  HSPICE Threads Information  ******

  Command Line Threads Count :     1
  Available CPU Count        :     4
  Actual Threads Count       :     1


  ******  Circuit Statistics  ******
  # nodes       =     174 # elements   =     392
  # resistors   =      72 # capacitors =     174 # inductors   =       0
  # mutual_inds =       0 # vccs       =      48 # vcvs        =      84
  # cccs        =       0 # ccvs       =       0 # volt_srcs   =      14
  # curr_srcs   =       0 # diodes     =       0 # bjts        =       0
  # jfets       =       0 # mosfets    =       0 # U elements  =       0
  # T elements  =       0 # W elements =       0 # B elements  =       0
  # S elements  =       0 # P elements =       0 # va device   =       0
  # vector_srcs =       0 # N elements =       0


  ******  Runtime Statistics (seconds)  ******

  analysis           time    # points   tot. iter  conv.iter
  op point           0.00           1           0
  dc sweep           2.05         101         259
  readin             0.03
  errchk             0.14
  setup              0.00
  output             0.00


           peak memory used         44.19 megabytes
           total cpu time            2.22 seconds
           total elapsed time        2.24 seconds
           job started at     00:41:46 12/08/2017
           job ended   at     00:41:48 12/08/2017


  lic: Release hspice token(s) 
 lic: total license checkout elapse time:        0.02(s)
